Time [s],Packet,Type,Identifier,Control,Data,CRC,ACK
0.008764250000000,0,DATA,0x150,0x3,0x40 0x07 0x00,0x344D,ACK
0.028221000000000,1,DATA,0x150,0x3,0x40 0x08 0x00,0x1A72,ACK
0.041767625000000,2,DATA,0x160,0x2,0x00 0x06,0x686E,ACK
0.048703937500000,3,DATA,0x150,0x3,0x40 0x09 0x00,0x5E54,ACK
0.068162687500000,4,DATA,0x150,0x3,0x3F 0x0A 0x00,0x7D7F,ACK
0.088643375000000,5,DATA,0x150,0x3,0x40 0x0B 0x00,0x1381,ACK
0.108092125000000,6,DATA,0x150,0x3,0x40 0x0C 0x00,0x4441,ACK
0.128574812500000,7,DATA,0x150,0x3,0x40 0x0D 0x00,0x0067,ACK
0.142113562500000,8,DATA,0x160,0x2,0x00 0x07,0x2DF7,ACK
0.148032062500000,9,DATA,0x150,0x3,0x40 0x0E 0x00,0x0994,ACK
0.168514750000000,10,DATA,0x150,0x3,0x40 0x0F 0x00,0x4DB2,ACK
0.188995500000000,11,DATA,0x150,0x3,0x40 0x00 0x00,0x638D,ACK
0.208462187500000,12,DATA,0x150,0x3,0x40 0x01 0x00,0x27AB,ACK
0.228942937500000,13,DATA,0x150,0x3,0x40 0x02 0x00,0x2E58,ACK
0.241511500000000,14,DATA,0x160,0x2,0x00 0x08,0x0A0D,ACK
0.248401875000000,15,DATA,0x150,0x3,0x40 0x03 0x00,0x6A7E,ACK
0.268882625000000,16,DATA,0x150,0x3,0x40 0x04 0x00,0x3DBE,ACK
0.288341312500000,17,DATA,0x150,0x3,0x40 0x05 0x00,0x7998,ACK
0.308824062500000,18,DATA,0x150,0x3,0x40 0x06 0x00,0x706B,ACK
0.328280750000000,19,DATA,0x150,0x3,0x40 0x07 0x00,0x344D,ACK
0.341857437500000,20,DATA,0x160,0x2,0x00 0x09,0x4F94,ACK
0.348763750000000,21,DATA,0x150,0x3,0x40 0x08 0x00,0x1A72,ACK
0.368220437500000,22,DATA,0x150,0x3,0x40 0x09 0x00,0x5E54,ACK
0.388703187500000,23,DATA,0x150,0x3,0x40 0x0A 0x00,0x57A7,ACK
0.408153875000000,24,DATA,0x150,0x3,0x3F 0x0B 0x00,0x3959,ACK
0.428634625000000,25,DATA,0x150,0x3,0x40 0x0C 0x00,0x4441,ACK
0.442201375000000,26,DATA,0x160,0x2,0x00 0x0A,0x44A6,ACK
0.448091812500000,27,DATA,0x150,0x3,0x40 0x0D 0x00,0x0067,ACK
0.468574562500000,28,DATA,0x150,0x3,0x40 0x0E 0x00,0x0994,ACK
0.488031250000000,29,DATA,0x150,0x3,0x40 0x0F 0x00,0x4DB2,ACK
0.508514000000000,30,DATA,0x150,0x3,0x40 0x00 0x00,0x638D,ACK
0.529004687500000,31,DATA,0x150,0x3,0x40 0x01 0x00,0x27AB,ACK
0.541531250000000,32,DATA,0x160,0x2,0x00 0x0B,0x013F,ACK
0.548461687500000,33,DATA,0x150,0x3,0x40 0x02 0x00,0x2E58,ACK
0.568942375000000,34,DATA,0x150,0x3,0x40 0x03 0x00,0x6A7E,ACK
0.588401125000000,35,DATA,0x150,0x3,0x40 0x04 0x00,0x3DBE,ACK
0.608883812500000,36,DATA,0x150,0x3,0x40 0x05 0x00,0x7998,ACK
0.628340562500000,37,DATA,0x150,0x3,0x40 0x06 0x00,0x706B,ACK
0.641875250000000,38,DATA,0x160,0x2,0x00 0x0C,0x52C2,ACK
0.648821750000000,39,DATA,0x150,0x3,0x40 0x07 0x00,0x344D,ACK
0.668280500000000,40,DATA,0x150,0x3,0x40 0x08 0x00,0x1A72,ACK
0.688763187500000,41,DATA,0x150,0x3,0x40 0x09 0x00,0x5E54,ACK
0.708219937500000,42,DATA,0x150,0x3,0x40 0x0A 0x00,0x57A7,ACK
0.728694625000000,43,DATA,0x150,0x3,0x40 0x0B 0x00,0x1381,ACK
0.742231437500000,44,DATA,0x160,0x2,0x00 0x0D,0x175B,ACK
0.748151875000000,45,DATA,0x150,0x3,0x40 0x0C 0x00,0x4441,ACK
0.768634562500000,46,DATA,0x150,0x3,0x40 0x0D 0x00,0x0067,ACK
0.788091312500000,47,DATA,0x150,0x3,0x40 0x0E 0x00,0x0994,ACK
0.808574000000000,48,DATA,0x150,0x3,0x40 0x0F 0x00,0x4DB2,ACK
0.829054750000000,49,DATA,0x150,0x3,0x40 0x00 0x00,0x638D,ACK
0.841557312500000,50,DATA,0x160,0x2,0x00 0x0E,0x1C69,ACK
0.848521687500000,51,DATA,0x150,0x3,0x40 0x01 0x00,0x27AB,ACK
0.869002437500000,52,DATA,0x150,0x3,0x40 0x02 0x00,0x2E58,ACK
0.888461125000000,53,DATA,0x150,0x3,0x40 0x03 0x00,0x6A7E,ACK
0.908943875000000,54,DATA,0x150,0x3,0x40 0x04 0x00,0x3DBE,ACK
0.928400562500000,55,DATA,0x150,0x3,0x40 0x05 0x00,0x7998,ACK
0.941975250000000,56,DATA,0x160,0x2,0x00 0x0F,0x59F0,ACK
0.948881812500000,57,DATA,0x150,0x3,0x40 0x06 0x00,0x706B,ACK
0.968340562500000,58,DATA,0x150,0x3,0x40 0x07 0x00,0x344D,ACK
0.988823250000000,59,DATA,0x150,0x3,0x40 0x08 0x00,0x1A72,ACK
