Time [s],Packet,Type,Identifier,Control,Data,CRC,ACK
0.006598750000000,0,DATA,0x160,0x2,0x00 0x07,0x2DF7,ACK
0.011365166666667,1,DATA,0x150,0x3,0xE2 0x07 0x00,0x1D5F,ACK
0.030821833333333,2,DATA,0x150,0x3,0xE2 0x08 0x00,0x3360,ACK
0.051304583333333,3,DATA,0x150,0x3,0xE2 0x09 0x00,0x7746,ACK
0.070763333333333,4,DATA,0x150,0x3,0xE2 0x0A 0x00,0x7EB5,ACK
0.091252000000000,5,DATA,0x150,0x3,0xE2 0x0B 0x00,0x3A93,ACK
0.106986666666667,6,DATA,0x160,0x2,0x00 0x08,0x0A0D,ACK
0.110711000000000,7,DATA,0x150,0x3,0xE2 0x0C 0x00,0x6D53,ACK
0.131191750000000,8,DATA,0x150,0x3,0xE2 0x0D 0x00,0x2975,ACK
0.150650416666667,9,DATA,0x150,0x3,0xE2 0x0E 0x00,0x2086,ACK
0.171131166666667,10,DATA,0x150,0x3,0xE2 0x0F 0x00,0x64A0,ACK
0.190589833333333,11,DATA,0x150,0x3,0xE2 0x00 0x00,0x4A9F,ACK
0.206350666666667,12,DATA,0x160,0x2,0x00 0x09,0x4F94,ACK
0.211063083333333,13,DATA,0x150,0x3,0xE2 0x01 0x00,0x0EB9,ACK
0.230521833333333,14,DATA,0x150,0x3,0xE2 0x02 0x00,0x074A,ACK
0.251002583333333,15,DATA,0x150,0x3,0xE2 0x03 0x00,0x436C,ACK
0.271485333333333,16,DATA,0x150,0x3,0xE2 0x04 0x00,0x14AC,ACK
0.290942000000000,17,DATA,0x150,0x3,0xE2 0x05 0x00,0x508A,ACK
0.306656583333333,18,DATA,0x160,0x2,0x00 0x0A,0x44A6,ACK
0.311425000000000,19,DATA,0x150,0x3,0xE2 0x06 0x00,0x5979,ACK
0.330881666666667,20,DATA,0x150,0x3,0xE2 0x07 0x00,0x1D5F,ACK
0.351364416666667,21,DATA,0x150,0x3,0xE2 0x08 0x00,0x3360,ACK
0.370823166666667,22,DATA,0x150,0x3,0xE2 0x09 0x00,0x7746,ACK
0.391303916666667,23,DATA,0x150,0x3,0xE2 0x0A 0x00,0x7EB5,ACK
0.407038583333333,24,DATA,0x160,0x2,0x00 0x0B,0x013F,ACK
0.410770833333333,25,DATA,0x150,0x3,0xE2 0x0B 0x00,0x3A93,ACK
0.431251583333333,26,DATA,0x150,0x3,0xE2 0x0C 0x00,0x6D53,ACK
0.450710250000000,27,DATA,0x150,0x3,0xE2 0x0D 0x00,0x2975,ACK
0.471191000000000,28,DATA,0x150,0x3,0xE2 0x0E 0x00,0x2086,ACK
0.490649750000000,29,DATA,0x150,0x3,0xE2 0x0F 0x00,0x64A0,ACK
0.506352500000000,30,DATA,0x160,0x2,0x00 0x0C,0x52C2,ACK
0.511131000000000,31,DATA,0x150,0x3,0xE2 0x00 0x00,0x4A9F,ACK
0.530581666666667,32,DATA,0x150,0x3,0xE2 0x01 0x00,0x0EB9,ACK
0.551062416666667,33,DATA,0x150,0x3,0xE2 0x02 0x00,0x074A,ACK
0.571545166666667,34,DATA,0x150,0x3,0xE2 0x03 0x00,0x436C,ACK
0.591001833333333,35,DATA,0x150,0x3,0xE2 0x04 0x00,0x14AC,ACK
0.606734500000000,36,DATA,0x160,0x2,0x00 0x0D,0x175B,ACK
0.611484833333333,37,DATA,0x150,0x3,0xE2 0x05 0x00,0x508A,ACK
0.630941583333333,38,DATA,0x150,0x3,0xE3 0x06 0x00,0x296D,ACK
0.651424250000000,39,DATA,0x150,0x3,0xE2 0x07 0x00,0x1D5F,ACK
0.670883000000000,40,DATA,0x150,0x3,0xE2 0x08 0x00,0x3360,ACK
0.691363750000000,41,DATA,0x150,0x3,0xE2 0x09 0x00,0x7746,ACK
0.707116416666667,42,DATA,0x160,0x2,0x00 0x0E,0x1C69,ACK
0.710822666666667,43,DATA,0x150,0x3,0xE2 0x0A 0x00,0x7EB5,ACK
0.731311416666667,44,DATA,0x150,0x3,0xE2 0x0B 0x00,0x3A93,ACK
0.750770166666667,45,DATA,0x150,0x3,0xE2 0x0C 0x00,0x6D53,ACK
0.771250833333333,46,DATA,0x150,0x3,0xE2 0x0D 0x00,0x2975,ACK
0.790709583333333,47,DATA,0x150,0x3,0xE2 0x0E 0x00,0x2086,ACK
0.806406416666667,48,DATA,0x160,0x2,0x00 0x0F,0x59F0,ACK
0.811190833333333,49,DATA,0x150,0x3,0xE2 0x0F 0x00,0x64A0,ACK
0.830649500000000,50,DATA,0x150,0x3,0xE2 0x00 0x00,0x4A9F,ACK
0.851122250000000,51,DATA,0x150,0x3,0xE2 0x01 0x00,0x0EB9,ACK
0.870580916666667,52,DATA,0x150,0x3,0xE2 0x02 0x00,0x074A,ACK
0.891061666666667,53,DATA,0x150,0x3,0xE2 0x03 0x00,0x436C,ACK
0.906786333333333,54,DATA,0x160,0x2,0x00 0x00,0x7E0A,ACK
0.911544666666667,55,DATA,0x150,0x3,0xE2 0x04 0x00,0x14AC,ACK
0.931001416666667,56,DATA,0x150,0x3,0xE2 0x05 0x00,0x508A,ACK
0.951484083333333,57,DATA,0x150,0x3,0xE2 0x06 0x00,0x5979,ACK
0.970942833333333,58,DATA,0x150,0x3,0xE2 0x07 0x00,0x1D5F,ACK
0.991423583333333,59,DATA,0x150,0x3,0xE2 0x08 0x00,0x3360,ACK
1.007180333333333,60,DATA,0x160,0x2,0x00 0x01,0x3B93,ACK
